
T1764 000:462 SEGGER J-Link V4.36l Log File (0037ms, 0461ms total)
T1764 000:462 DLL Compiled: Dec  2 2011 18:52:36 (0037ms, 0461ms total)
T1764 000:462 Logging started @ 2017-08-12 18:56 (0037ms, 0461ms total)
T1764 000:499 JLINK_SetWarnOutHandler(...) (0000ms, 0498ms total)
T1764 000:500 JLINK_OpenEx(...)
Firmware: J-Link ARM V8 compiled Nov 28 2014 13:44:46
Hardware: V8.00
S/N: 799713843
Feature(s): RDI,FlashDL,FlashBP,JFlash,GDBFULL  returns O.K. (0216ms, 0498ms total)
T1764 000:716 JLINK_SetErrorOutHandler(...) (0000ms, 0714ms total)
T1764 000:716 JLINK_ExecCommand("Device = STM32F103RB", ...)
                JLINK_ExecCommand("map ram 0x20000000 - 0x20004FFF", ...)  returns 0x00 (0000ms, 0000ms total)
                JLINK_AddMirrorAreaEx(Addr = 0x00000000, Size = 0x00000000) (0000ms, 0000ms total)
              Device "STM32F103RB" selected (128 KB flash, 20 KB RAM).  returns 0x00 (0002ms, 0714ms total)
T1764 000:720 JLINK_ExecCommand("ProjectFile = "E:\360云盘\STM32开发板设计资料不可外发\ILi9341电能计量模块实验\USER\JLinkSettings.ini"", ...)  returns 0x00 (0011ms, 0716ms total)
T1764 000:732 JLINK_ExecCommand("DisableConnectionTimeout", ...)  returns 0x00 (0000ms, 0727ms total)
T1764 000:732 JLINK_TIF_Select(JLINKARM_TIF_SWD)  returns 0x00 (0002ms, 0727ms total)
T1764 000:734 JLINK_SetSpeed(10000) (0001ms, 0729ms total)
T1764 000:735 JLINK_GetHardwareVersion()  returns 0x13880 (0000ms, 0730ms total)
T1764 000:735 JLINK_GetDLLVersion()  returns 43612 (0000ms, 0730ms total)
T1764 000:735 JLINK_GetFirmwareString(...) (0000ms, 0730ms total)
T1764 000:738 JLINK_GetDLLVersion()  returns 43612 (0000ms, 0730ms total)
T1764 000:738 JLINK_GetCompileDateTime() (0000ms, 0730ms total)
T1764 000:745 JLINK_GetFirmwareString(...) (0000ms, 0730ms total)
T1764 000:749 JLINK_GetHardwareVersion()  returns 0x13880 (0000ms, 0730ms total)
T1764 000:756 JLINK_GetId() >0x108 TIF>Found SWD-DP with ID 0x1BA01477 >0x33 TIF> >0x33 TIF> >0x35 TIF> >0x33 TIF> >0x35 TIF> >0x33 TIF> >0x33 TIF> >0x35 TIF> >0x33 TIF> >0x33 TIF> >0x35 TIF> >0x33 TIF> >0x33 TIF> >0x35 TIF> >0x33 TIF> >0x33 TIF> >0x35 TIF> >0x35 TIF> >0x35 TIF> >0x33 TIF> >0x33 TIF> >0x35 TIF> >0x33 TIF> >0x33 TIF> >0x33 TIF>TPIU fitted. >0x35 TIF> >0x33 TIF> >0x33 TIF> >0x35 TIF> >0x33 TIF> >0x33 TIF>  FPUnit: 6 code (BP) slots and 2 literal slots >0x35 TIF> >0x33 TIF> >0x33 TIF>
 >0x35 TIF> >0x33 TIF> >0x33 TIF> >0x35 TIF> >0x33 TIF> >0x33 TIF> >0x35 TIF> >0x33 TIF> >0x33 TIF>Found Cortex-M3 r1p1, Little endian. >0x33 TIF>  returns 0x1BA01477 (0040ms, 0730ms total)
T1764 000:796 JLINK_GetDebugInfo(0x100) -- Value=0xE00FF003  returns 0x00 (0000ms, 0770ms total)
T1764 000:797 JLINK_ReadMem (0xE00FFFF0, 0x0010 Bytes, ...) -- CPU is running -- CPU_ReadMem(16 bytes @ 0xE00FFFF0) -- Data:  0D 00 00 00 10 00 00 00 05 00 00 00 B1 00 00 00  returns 0x00 (0002ms, 0770ms total)
T1764 000:799 JLINK_ReadMem (0xE00FFFD0, 0x0020 Bytes, ...) -- CPU is running -- CPU_ReadMem(32 bytes @ 0xE00FFFD0) -- Data:  00 00 00 00 00 00 00 00 00 00 00 00 00 00 00 00 ...  returns 0x00 (0001ms, 0772ms total)
T1764 000:800 JLINK_ReadMem (0xE00FF000, 0x0018 Bytes, ...) -- CPU is running -- CPU_ReadMem(24 bytes @ 0xE00FF000) -- Data:  03 F0 F0 FF 03 20 F0 FF 03 30 F0 FF 03 10 F0 FF ...  returns 0x00 (0001ms, 0773ms total)
T1764 000:801 JLINK_ReadMemU32(0xE000ED00, 0x0001 Items, ...) -- CPU is running -- CPU_ReadMem(4 bytes @ 0xE000ED00) -- Data:  31 C2 1F 41  returns 0x01 (0001ms, 0774ms total)
T1764 000:802 JLINK_SetResetType(JLINKARM_RESET_TYPE_NORMAL)  returns JLINKARM_RESET_TYPE_NORMAL (0000ms, 0775ms total)
T1764 000:802 JLINK_Reset() >0x108 TIF>Found SWD-DP with ID 0x1BA01477 >0x33 TIF> >0x33 TIF> >0x35 TIF> >0x33 TIF> >0x35 TIF> >0x33 TIF> >0x33 TIF> >0x35 TIF> >0x33 TIF> >0x33 TIF> >0x35 TIF> >0x33 TIF> >0x33 TIF> >0x35 TIF> >0x33 TIF> >0x33 TIF> >0x35 TIF> >0x35 TIF> >0x35 TIF> >0x33 TIF> >0x33 TIF> >0x35 TIF> >0x33 TIF> >0x33 TIF> >0x33 TIF>TPIU fitted. >0x35 TIF> >0x33 TIF> >0x33 TIF> >0x35 TIF> >0x33 TIF> >0x33 TIF>  FPUnit: 6 code (BP) slots and 2 literal slots >0x35 TIF> >0x33 TIF> >0x33 TIF>
 >0x35 TIF> >0x33 TIF> >0x33 TIF> >0x35 TIF> >0x33 TIF> >0x33 TIF> >0x35 TIF> >0x33 TIF> >0x33 TIF>Found Cortex-M3 r1p1, Little endian. -- CPU is running -- CPU_WriteMem(4 bytes @ 0xE000EDF0) -- CPU is running -- CPU_WriteMem(4 bytes @ 0xE000EDFC) >0x35 TIF> -- CPU is running -- CPU_WriteMem(4 bytes @ 0xE000ED0C) -- CPU is running -- CPU_ReadMem(4 bytes @ 0xE000EDF0) -- CPU is running -- CPU_ReadMem(4 bytes @ 0xE000EDF0) -- CPU is running -- CPU_WriteMem(4 bytes @ 0xE000EDF0) -- CPU is running
 -- CPU_WriteMem(4 bytes @ 0xE000EDFC) -- CPU is running -- CPU_ReadMem(4 bytes @ 0xE000EDF0) (0061ms, 0775ms total)
T1764 000:863 JLINK_Halt()  returns 0x00 (0000ms, 0836ms total)
T1764 000:863 JLINK_IsHalted()  returns TRUE (0000ms, 0836ms total)
T1764 000:863 JLINK_ReadMemU32(0xE000EDF0, 0x0001 Items, ...) -- CPU_ReadMem(4 bytes @ 0xE000EDF0) -- Data:  03 00 03 00  returns 0x01 (0001ms, 0836ms total)
T1764 000:864 JLINK_WriteU32(0xE000EDF0, 0xA05F0003) -- CPU_WriteMem(4 bytes @ 0xE000EDF0)  returns 0x00 (0001ms, 0837ms total)
T1764 000:865 JLINK_WriteU32(0xE000EDFC, 0x01000000) -- CPU_WriteMem(4 bytes @ 0xE000EDFC)  returns 0x00 (0001ms, 0838ms total)
T1764 000:872 JLINK_GetHWStatus(...)  returns 0x00 (0001ms, 0839ms total)
T1764 000:879 JLINK_GetNumBPUnits(Type = 0xFFFFFF00)  returns 0x06 (0000ms, 0840ms total)
T1764 000:879 JLINK_GetNumBPUnits(Type = 0xF0)  returns 0x2000 (0000ms, 0840ms total)
T1764 000:879 JLINK_GetNumWPUnits()  returns 0x04 (0000ms, 0840ms total)
T1764 000:884 JLINK_GetSpeed()  returns 0xFA0 (0000ms, 0840ms total)
T1764 000:888 JLINK_ReadMemU32(0xE000E004, 0x0001 Items, ...) -- CPU_ReadMem(4 bytes @ 0xE000E004) -- Data:  01 00 00 00  returns 0x01 (0001ms, 0840ms total)
T1764 000:889 JLINK_ReadMemU32(0xE000E004, 0x0001 Items, ...) -- CPU_ReadMem(4 bytes @ 0xE000E004) -- Data:  01 00 00 00  returns 0x01 (0001ms, 0841ms total)
T1764 000:890 JLINK_WriteMem(0xE0001000, 0x001C Bytes, ...) -- Data:  01 00 00 00 00 00 00 00 00 00 00 00 00 00 00 00 ... -- CPU_WriteMem(28 bytes @ 0xE0001000)  returns 0x1C (0002ms, 0842ms total)
T1764 000:892 JLINK_ReadMem (0xE0001000, 0x001C Bytes, ...) -- CPU_ReadMem(28 bytes @ 0xE0001000) -- Data:  01 00 00 40 00 00 00 00 00 00 00 00 00 00 00 00 ...  returns 0x00 (0001ms, 0844ms total)
T1764 000:893 JLINK_Halt()  returns 0x00 (0000ms, 0845ms total)
T1764 000:893 JLINK_IsHalted()  returns TRUE (0000ms, 0845ms total)
T1764 000:895 JLINK_WriteMem(0x20000000, 0x0164 Bytes, ...) -- Data:  00 BE 0A E0 0D 78 2D 06 68 40 08 24 40 00 00 D3 ... -- CPU_WriteMem(356 bytes @ 0x20000000)  returns 0x164 (0003ms, 0845ms total)
T1764 000:898 JLINK_WriteReg(R0, 0x08000000)  returns 0x00 (0000ms, 0848ms total)
T1764 000:898 JLINK_WriteReg(R1, 0x007A1200)  returns 0x00 (0000ms, 0848ms total)
T1764 000:898 JLINK_WriteReg(R2, 0x00000001)  returns 0x00 (0000ms, 0848ms total)
T1764 000:898 JLINK_WriteReg(R3, 0x00000000)  returns 0x00 (0000ms, 0848ms total)
T1764 000:899 JLINK_WriteReg(R4, 0x00000000)  returns 0x00 (0000ms, 0848ms total)
T1764 000:899 JLINK_WriteReg(R5, 0x00000000)  returns 0x00 (0000ms, 0848ms total)
T1764 000:899 JLINK_WriteReg(R6, 0x00000000)  returns 0x00 (0000ms, 0848ms total)
T1764 000:899 JLINK_WriteReg(R7, 0x00000000)  returns 0x00 (0000ms, 0848ms total)
T1764 000:899 JLINK_WriteReg(R8, 0x00000000)  returns 0x00 (0000ms, 0848ms total)
T1764 000:899 JLINK_WriteReg(R9, 0x20000160)  returns 0x00 (0000ms, 0848ms total)
T1764 000:899 JLINK_WriteReg(R10, 0x00000000)  returns 0x00 (0000ms, 0848ms total)
T1764 000:899 JLINK_WriteReg(R11, 0x00000000)  returns 0x00 (0000ms, 0848ms total)
T1764 000:899 JLINK_WriteReg(R12, 0x00000000)  returns 0x00 (0000ms, 0848ms total)
T1764 000:899 JLINK_WriteReg(R13, 0x20000800)  returns 0x00 (0000ms, 0848ms total)
T1764 000:899 JLINK_WriteReg(R14, 0x20000001)  returns 0x00 (0000ms, 0848ms total)
T1764 000:899 JLINK_WriteReg(R15, 0x20000038)  returns 0x00 (0000ms, 0848ms total)
T1764 000:899 JLINK_WriteReg(XPSR, 0x01000000)  returns 0x00 (0000ms, 0848ms total)
T1764 000:899 JLINK_WriteReg(MSP, 0x20000800)  returns 0x00 (0000ms, 0848ms total)
T1764 000:899 JLINK_WriteReg(PSP, 0x20000800)  returns 0x00 (0000ms, 0848ms total)
T1764 000:899 JLINK_WriteReg(CFBP, 0x00000000)  returns 0x00 (0000ms, 0848ms total)
T1764 000:899 JLINK_SetBPEx(Addr = 0x20000000, Type = 0xFFFFFFF2) -- CPU_ReadMem(2 bytes @ 0x20000000)  returns 0x00000001 (0001ms, 0848ms total)
T1764 000:900 JLINK_Go() -- CPU_WriteMem(2 bytes @ 0x20000000) -- CPU_WriteMem(4 bytes @ 0xE0002008) -- CPU_WriteMem(4 bytes @ 0xE000200C) -- CPU_WriteMem(4 bytes @ 0xE0002010) -- CPU_WriteMem(4 bytes @ 0xE0002014) -- CPU_WriteMem(4 bytes @ 0xE0002018) -- CPU_WriteMem(4 bytes @ 0xE000201C) (0009ms, 0849ms total)
T1764 000:910 JLINK_IsHalted() -- CPU_ReadMem(2 bytes @ 0x20000000)  returns TRUE (0004ms, 0859ms total)
T1764 000:914 JLINK_ReadReg(R15)  returns 0x20000000 (0000ms, 0859ms total)
T1764 000:914 JLINK_ClrBPEx(BPHandle = 0x00000001)  returns 0x00 (0000ms, 0859ms total)
T1764 000:914 JLINK_ReadReg(R0)  returns 0x00000000 (0000ms, 0859ms total)
T1764 000:914 JLINK_WriteReg(R0, 0x08000000)  returns 0x00 (0000ms, 0859ms total)
T1764 000:914 JLINK_WriteReg(R1, 0x007A1200)  returns 0x00 (0000ms, 0859ms total)
T1764 000:914 JLINK_WriteReg(R2, 0x00000001)  returns 0x00 (0000ms, 0859ms total)
T1764 000:914 JLINK_WriteReg(R3, 0x00000000)  returns 0x00 (0000ms, 0859ms total)
T1764 000:914 JLINK_WriteReg(R4, 0x00000000)  returns 0x00 (0001ms, 0859ms total)
T1764 000:915 JLINK_WriteReg(R5, 0x00000000)  returns 0x00 (0000ms, 0860ms total)
T1764 000:915 JLINK_WriteReg(R6, 0x00000000)  returns 0x00 (0000ms, 0860ms total)
T1764 000:915 JLINK_WriteReg(R7, 0x00000000)  returns 0x00 (0000ms, 0860ms total)
T1764 000:915 JLINK_WriteReg(R8, 0x00000000)  returns 0x00 (0000ms, 0860ms total)
T1764 000:915 JLINK_WriteReg(R9, 0x20000160)  returns 0x00 (0000ms, 0860ms total)
T1764 000:915 JLINK_WriteReg(R10, 0x00000000)  returns 0x00 (0000ms, 0860ms total)
T1764 000:915 JLINK_WriteReg(R11, 0x00000000)  returns 0x00 (0000ms, 0860ms total)
T1764 000:915 JLINK_WriteReg(R12, 0x00000000)  returns 0x00 (0000ms, 0860ms total)
T1764 000:915 JLINK_WriteReg(R13, 0x20000800)  returns 0x00 (0000ms, 0860ms total)
T1764 000:915 JLINK_WriteReg(R14, 0x20000001)  returns 0x00 (0000ms, 0860ms total)
T1764 000:915 JLINK_WriteReg(R15, 0x2000007C)  returns 0x00 (0000ms, 0860ms total)
T1764 000:915 JLINK_WriteReg(XPSR, 0x01000000)  returns 0x00 (0000ms, 0860ms total)
T1764 000:915 JLINK_WriteReg(MSP, 0x20000800)  returns 0x00 (0000ms, 0860ms total)
T1764 000:915 JLINK_WriteReg(PSP, 0x20000800)  returns 0x00 (0000ms, 0860ms total)
T1764 000:915 JLINK_WriteReg(CFBP, 0x00000000)  returns 0x00 (0000ms, 0860ms total)
T1764 000:915 JLINK_SetBPEx(Addr = 0x20000000, Type = 0xFFFFFFF2)  returns 0x00000002 (0000ms, 0860ms total)
T1764 000:915 JLINK_Go() -- CPU_WriteMem(4 bytes @ 0xE0002008) -- CPU_WriteMem(4 bytes @ 0xE000200C) -- CPU_WriteMem(4 bytes @ 0xE0002010) -- CPU_WriteMem(4 bytes @ 0xE0002014) -- CPU_WriteMem(4 bytes @ 0xE0002018) -- CPU_WriteMem(4 bytes @ 0xE000201C) (0008ms, 0860ms total)
T1764 000:923 JLINK_IsHalted()  returns FALSE (0000ms, 0868ms total)
T1764 000:973 JLINK_IsHalted() -- CPU_ReadMem(2 bytes @ 0x20000000)  returns TRUE (0003ms, 0868ms total)
T1764 000:976 JLINK_ReadReg(R15)  returns 0x20000000 (0001ms, 0868ms total)
T1764 000:977 JLINK_ClrBPEx(BPHandle = 0x00000002)  returns 0x00 (0000ms, 0869ms total)
T1764 000:977 JLINK_ReadReg(R0)  returns 0x00000000 (0000ms, 0869ms total)
T1764 001:028 JLINK_WriteReg(R0, 0x00000001)  returns 0x00 (0001ms, 0869ms total)
T1764 001:029 JLINK_WriteReg(R1, 0x007A1200)  returns 0x00 (0000ms, 0870ms total)
T1764 001:029 JLINK_WriteReg(R2, 0x00000001)  returns 0x00 (0000ms, 0870ms total)
T1764 001:029 JLINK_WriteReg(R3, 0x00000000)  returns 0x00 (0000ms, 0870ms total)
T1764 001:029 JLINK_WriteReg(R4, 0x00000000)  returns 0x00 (0000ms, 0870ms total)
T1764 001:029 JLINK_WriteReg(R5, 0x00000000)  returns 0x00 (0000ms, 0870ms total)
T1764 001:029 JLINK_WriteReg(R6, 0x00000000)  returns 0x00 (0000ms, 0870ms total)
T1764 001:029 JLINK_WriteReg(R7, 0x00000000)  returns 0x00 (0000ms, 0870ms total)
T1764 001:029 JLINK_WriteReg(R8, 0x00000000)  returns 0x00 (0000ms, 0870ms total)
T1764 001:029 JLINK_WriteReg(R9, 0x20000160)  returns 0x00 (0000ms, 0870ms total)
T1764 001:029 JLINK_WriteReg(R10, 0x00000000)  returns 0x00 (0000ms, 0870ms total)
T1764 001:029 JLINK_WriteReg(R11, 0x00000000)  returns 0x00 (0000ms, 0870ms total)
T1764 001:030 JLINK_WriteReg(R12, 0x00000000)  returns 0x00 (0000ms, 0871ms total)
T1764 001:030 JLINK_WriteReg(R13, 0x20000800)  returns 0x00 (0000ms, 0871ms total)
T1764 001:030 JLINK_WriteReg(R14, 0x20000001)  returns 0x00 (0000ms, 0871ms total)
T1764 001:030 JLINK_WriteReg(R15, 0x2000006A)  returns 0x00 (0000ms, 0871ms total)
T1764 001:030 JLINK_WriteReg(XPSR, 0x01000000)  returns 0x00 (0000ms, 0871ms total)
T1764 001:030 JLINK_WriteReg(MSP, 0x20000800)  returns 0x00 (0000ms, 0871ms total)
T1764 001:030 JLINK_WriteReg(PSP, 0x20000800)  returns 0x00 (0000ms, 0871ms total)
T1764 001:030 JLINK_WriteReg(CFBP, 0x00000000)  returns 0x00 (0000ms, 0871ms total)
T1764 001:030 JLINK_SetBPEx(Addr = 0x20000000, Type = 0xFFFFFFF2)  returns 0x00000003 (0000ms, 0871ms total)
T1764 001:030 JLINK_Go() -- CPU_WriteMem(4 bytes @ 0xE0002008) -- CPU_WriteMem(4 bytes @ 0xE000200C) -- CPU_WriteMem(4 bytes @ 0xE0002010) -- CPU_WriteMem(4 bytes @ 0xE0002014) -- CPU_WriteMem(4 bytes @ 0xE0002018) -- CPU_WriteMem(4 bytes @ 0xE000201C) (0009ms, 0871ms total)
T1764 001:039 JLINK_IsHalted() -- CPU_ReadMem(2 bytes @ 0x20000000)  returns TRUE (0005ms, 0880ms total)
T1764 001:044 JLINK_ReadReg(R15)  returns 0x20000000 (0000ms, 0880ms total)
T1764 001:044 JLINK_ClrBPEx(BPHandle = 0x00000003)  returns 0x00 (0000ms, 0880ms total)
T1764 001:044 JLINK_ReadReg(R0)  returns 0x00000000 (0000ms, 0880ms total)
T1764 001:050 JLINK_WriteMem(0x20000000, 0x0164 Bytes, ...) -- Data:  00 BE 0A E0 0D 78 2D 06 68 40 08 24 40 00 00 D3 ... -- CPU_WriteMem(356 bytes @ 0x20000000)  returns 0x164 (0003ms, 0880ms total)
T1764 001:053 JLINK_WriteReg(R0, 0x08000000)  returns 0x00 (0000ms, 0883ms total)
T1764 001:053 JLINK_WriteReg(R1, 0x007A1200)  returns 0x00 (0000ms, 0883ms total)
T1764 001:053 JLINK_WriteReg(R2, 0x00000002)  returns 0x00 (0000ms, 0883ms total)
T1764 001:053 JLINK_WriteReg(R3, 0x00000000)  returns 0x00 (0000ms, 0883ms total)
T1764 001:053 JLINK_WriteReg(R4, 0x00000000)  returns 0x00 (0000ms, 0883ms total)
T1764 001:053 JLINK_WriteReg(R5, 0x00000000)  returns 0x00 (0000ms, 0883ms total)
T1764 001:053 JLINK_WriteReg(R6, 0x00000000)  returns 0x00 (0000ms, 0883ms total)
T1764 001:053 JLINK_WriteReg(R7, 0x00000000)  returns 0x00 (0000ms, 0883ms total)
T1764 001:053 JLINK_WriteReg(R8, 0x00000000)  returns 0x00 (0001ms, 0883ms total)
T1764 001:054 JLINK_WriteReg(R9, 0x20000160)  returns 0x00 (0000ms, 0884ms total)
T1764 001:054 JLINK_WriteReg(R10, 0x00000000)  returns 0x00 (0000ms, 0884ms total)
T1764 001:054 JLINK_WriteReg(R11, 0x00000000)  returns 0x00 (0000ms, 0884ms total)
T1764 001:054 JLINK_WriteReg(R12, 0x00000000)  returns 0x00 (0000ms, 0884ms total)
T1764 001:054 JLINK_WriteReg(R13, 0x20000800)  returns 0x00 (0000ms, 0884ms total)
T1764 001:054 JLINK_WriteReg(R14, 0x20000001)  returns 0x00 (0000ms, 0884ms total)
T1764 001:054 JLINK_WriteReg(R15, 0x20000038)  returns 0x00 (0000ms, 0884ms total)
T1764 001:054 JLINK_WriteReg(XPSR, 0x01000000)  returns 0x00 (0000ms, 0884ms total)
T1764 001:054 JLINK_WriteReg(MSP, 0x20000800)  returns 0x00 (0000ms, 0884ms total)
T1764 001:054 JLINK_WriteReg(PSP, 0x20000800)  returns 0x00 (0000ms, 0884ms total)
T1764 001:054 JLINK_WriteReg(CFBP, 0x00000000)  returns 0x00 (0000ms, 0884ms total)
T1764 001:054 JLINK_SetBPEx(Addr = 0x20000000, Type = 0xFFFFFFF2) -- CPU_ReadMem(2 bytes @ 0x20000000)  returns 0x00000004 (0001ms, 0884ms total)
T1764 001:055 JLINK_Go() -- CPU_WriteMem(2 bytes @ 0x20000000) -- CPU_WriteMem(4 bytes @ 0xE0002008) -- CPU_WriteMem(4 bytes @ 0xE000200C) -- CPU_WriteMem(4 bytes @ 0xE0002010) -- CPU_WriteMem(4 bytes @ 0xE0002014) -- CPU_WriteMem(4 bytes @ 0xE0002018) -- CPU_WriteMem(4 bytes @ 0xE000201C) (0008ms, 0885ms total)
T1764 001:064 JLINK_IsHalted() -- CPU_ReadMem(2 bytes @ 0x20000000)  returns TRUE (0004ms, 0894ms total)
T1764 001:068 JLINK_ReadReg(R15)  returns 0x20000000 (0000ms, 0894ms total)
T1764 001:068 JLINK_ClrBPEx(BPHandle = 0x00000004)  returns 0x00 (0000ms, 0894ms total)
T1764 001:068 JLINK_ReadReg(R0)  returns 0x00000000 (0000ms, 0894ms total)
T1764 001:068 JLINK_WriteMem(0x20000164, 0x0400 Bytes, ...) -- Data:  68 03 00 20 99 01 00 08 9D 01 00 08 9F 01 00 08 ... -- CPU_WriteMem(1024 bytes @ 0x20000164)  returns 0x400 (0007ms, 0894ms total)
T1764 001:075 JLINK_WriteReg(R0, 0x08000000)  returns 0x00 (0000ms, 0901ms total)
T1764 001:075 JLINK_WriteReg(R1, 0x00000400)  returns 0x00 (0000ms, 0901ms total)
T1764 001:075 JLINK_WriteReg(R2, 0x20000164)  returns 0x00 (0000ms, 0901ms total)
T1764 001:075 JLINK_WriteReg(R3, 0x00000000)  returns 0x00 (0000ms, 0901ms total)
T1764 001:075 JLINK_WriteReg(R4, 0x00000000)  returns 0x00 (0000ms, 0901ms total)
T1764 001:075 JLINK_WriteReg(R5, 0x00000000)  returns 0x00 (0000ms, 0901ms total)
T1764 001:075 JLINK_WriteReg(R6, 0x00000000)  returns 0x00 (0001ms, 0901ms total)
T1764 001:076 JLINK_WriteReg(R7, 0x00000000)  returns 0x00 (0000ms, 0902ms total)
T1764 001:076 JLINK_WriteReg(R8, 0x00000000)  returns 0x00 (0000ms, 0902ms total)
T1764 001:076 JLINK_WriteReg(R9, 0x20000160)  returns 0x00 (0000ms, 0902ms total)
T1764 001:076 JLINK_WriteReg(R10, 0x00000000)  returns 0x00 (0000ms, 0902ms total)
T1764 001:076 JLINK_WriteReg(R11, 0x00000000)  returns 0x00 (0000ms, 0902ms total)
T1764 001:076 JLINK_WriteReg(R12, 0x00000000)  returns 0x00 (0000ms, 0902ms total)
T1764 001:076 JLINK_WriteReg(R13, 0x20000800)  returns 0x00 (0000ms, 0902ms total)
T1764 001:076 JLINK_WriteReg(R14, 0x20000001)  returns 0x00 (0000ms, 0902ms total)
T1764 001:076 JLINK_WriteReg(R15, 0x200000F4)  returns 0x00 (0000ms, 0902ms total)
T1764 001:076 JLINK_WriteReg(XPSR, 0x01000000)  returns 0x00 (0000ms, 0902ms total)
T1764 001:076 JLINK_WriteReg(MSP, 0x20000800)  returns 0x00 (0000ms, 0902ms total)
T1764 001:076 JLINK_WriteReg(PSP, 0x20000800)  returns 0x00 (0000ms, 0902ms total)
T1764 001:076 JLINK_WriteReg(CFBP, 0x00000000)  returns 0x00 (0000ms, 0902ms total)
T1764 001:076 JLINK_SetBPEx(Addr = 0x20000000, Type = 0xFFFFFFF2)  returns 0x00000005 (0000ms, 0902ms total)
T1764 001:076 JLINK_Go() -- CPU_WriteMem(4 bytes @ 0xE0002008) -- CPU_WriteMem(4 bytes @ 0xE000200C) -- CPU_WriteMem(4 bytes @ 0xE0002010) -- CPU_WriteMem(4 bytes @ 0xE0002014) -- CPU_WriteMem(4 bytes @ 0xE0002018) -- CPU_WriteMem(4 bytes @ 0xE000201C) (0008ms, 0902ms total)
T1764 001:084 JLINK_IsHalted()  returns FALSE (0001ms, 0910ms total)
T1764 001:135 JLINK_IsHalted() -- CPU_ReadMem(2 bytes @ 0x20000000)  returns TRUE (0004ms, 0910ms total)
T1764 001:140 JLINK_ReadReg(R15)  returns 0x20000000 (0000ms, 0910ms total)
T1764 001:140 JLINK_ClrBPEx(BPHandle = 0x00000005)  returns 0x00 (0000ms, 0910ms total)
T1764 001:140 JLINK_ReadReg(R0)  returns 0x00000000 (0000ms, 0910ms total)
T1764 001:141 JLINK_WriteMem(0x20000164, 0x0400 Bytes, ...) -- Data:  4A 43 4F F0 E0 23 5A 61 00 22 9A 61 01 22 1A 61 ... -- CPU_WriteMem(1024 bytes @ 0x20000164)  returns 0x400 (0007ms, 0910ms total)
T1764 001:148 JLINK_WriteReg(R0, 0x08000400)  returns 0x00 (0000ms, 0917ms total)
T1764 001:148 JLINK_WriteReg(R1, 0x00000400)  returns 0x00 (0000ms, 0917ms total)
T1764 001:148 JLINK_WriteReg(R2, 0x20000164)  returns 0x00 (0000ms, 0917ms total)
T1764 001:148 JLINK_WriteReg(R3, 0x00000000)  returns 0x00 (0000ms, 0917ms total)
T1764 001:148 JLINK_WriteReg(R4, 0x00000000)  returns 0x00 (0000ms, 0917ms total)
T1764 001:148 JLINK_WriteReg(R5, 0x00000000)  returns 0x00 (0000ms, 0917ms total)
T1764 001:148 JLINK_WriteReg(R6, 0x00000000)  returns 0x00 (0000ms, 0917ms total)
T1764 001:148 JLINK_WriteReg(R7, 0x00000000)  returns 0x00 (0000ms, 0917ms total)
T1764 001:148 JLINK_WriteReg(R8, 0x00000000)  returns 0x00 (0000ms, 0917ms total)
T1764 001:148 JLINK_WriteReg(R9, 0x20000160)  returns 0x00 (0000ms, 0917ms total)
T1764 001:148 JLINK_WriteReg(R10, 0x00000000)  returns 0x00 (0000ms, 0917ms total)
T1764 001:149 JLINK_WriteReg(R11, 0x00000000)  returns 0x00 (0000ms, 0917ms total)
T1764 001:149 JLINK_WriteReg(R12, 0x00000000)  returns 0x00 (0000ms, 0917ms total)
T1764 001:149 JLINK_WriteReg(R13, 0x20000800)  returns 0x00 (0000ms, 0917ms total)
T1764 001:149 JLINK_WriteReg(R14, 0x20000001)  returns 0x00 (0000ms, 0917ms total)
T1764 001:149 JLINK_WriteReg(R15, 0x200000F4)  returns 0x00 (0000ms, 0917ms total)
T1764 001:149 JLINK_WriteReg(XPSR, 0x01000000)  returns 0x00 (0000ms, 0917ms total)
T1764 001:149 JLINK_WriteReg(MSP, 0x20000800)  returns 0x00 (0000ms, 0917ms total)
T1764 001:149 JLINK_WriteReg(PSP, 0x20000800)  returns 0x00 (0000ms, 0917ms total)
T1764 001:149 JLINK_WriteReg(CFBP, 0x00000000)  returns 0x00 (0000ms, 0917ms total)
T1764 001:149 JLINK_SetBPEx(Addr = 0x20000000, Type = 0xFFFFFFF2)  returns 0x00000006 (0000ms, 0917ms total)
T1764 001:149 JLINK_Go() -- CPU_WriteMem(4 bytes @ 0xE0002008) -- CPU_WriteMem(4 bytes @ 0xE000200C) -- CPU_WriteMem(4 bytes @ 0xE0002010) -- CPU_WriteMem(4 bytes @ 0xE0002014) -- CPU_WriteMem(4 bytes @ 0xE0002018) -- CPU_WriteMem(4 bytes @ 0xE000201C) (0009ms, 0917ms total)
T1764 001:158 JLINK_IsHalted()  returns FALSE (0001ms, 0926ms total)
T1764 001:209 JLINK_IsHalted() -- CPU_ReadMem(2 bytes @ 0x20000000)  returns TRUE (0004ms, 0926ms total)
T1764 001:213 JLINK_ReadReg(R15)  returns 0x20000000 (0000ms, 0926ms total)
T1764 001:213 JLINK_ClrBPEx(BPHandle = 0x00000006)  returns 0x00 (0000ms, 0926ms total)
T1764 001:213 JLINK_ReadReg(R0)  returns 0x00000000 (0000ms, 0926ms total)
T1764 001:214 JLINK_WriteMem(0x20000164, 0x0400 Bytes, ...) -- Data:  08 60 08 46 01 78 4E 48 C0 7C 81 42 0B D1 4D 48 ... -- CPU_WriteMem(1024 bytes @ 0x20000164)  returns 0x400 (0007ms, 0926ms total)
T1764 001:221 JLINK_WriteReg(R0, 0x08000800)  returns 0x00 (0000ms, 0933ms total)
T1764 001:221 JLINK_WriteReg(R1, 0x00000400)  returns 0x00 (0000ms, 0933ms total)
T1764 001:221 JLINK_WriteReg(R2, 0x20000164)  returns 0x00 (0000ms, 0933ms total)
T1764 001:221 JLINK_WriteReg(R3, 0x00000000)  returns 0x00 (0000ms, 0933ms total)
T1764 001:221 JLINK_WriteReg(R4, 0x00000000)  returns 0x00 (0000ms, 0933ms total)
T1764 001:221 JLINK_WriteReg(R5, 0x00000000)  returns 0x00 (0000ms, 0933ms total)
T1764 001:221 JLINK_WriteReg(R6, 0x00000000)  returns 0x00 (0000ms, 0933ms total)
T1764 001:221 JLINK_WriteReg(R7, 0x00000000)  returns 0x00 (0000ms, 0933ms total)
T1764 001:221 JLINK_WriteReg(R8, 0x00000000)  returns 0x00 (0000ms, 0933ms total)
T1764 001:221 JLINK_WriteReg(R9, 0x20000160)  returns 0x00 (0000ms, 0933ms total)
T1764 001:221 JLINK_WriteReg(R10, 0x00000000)  returns 0x00 (0000ms, 0933ms total)
T1764 001:221 JLINK_WriteReg(R11, 0x00000000)  returns 0x00 (0000ms, 0933ms total)
T1764 001:221 JLINK_WriteReg(R12, 0x00000000)  returns 0x00 (0000ms, 0933ms total)
T1764 001:221 JLINK_WriteReg(R13, 0x20000800)  returns 0x00 (0000ms, 0933ms total)
T1764 001:221 JLINK_WriteReg(R14, 0x20000001)  returns 0x00 (0000ms, 0933ms total)
T1764 001:221 JLINK_WriteReg(R15, 0x200000F4)  returns 0x00 (0000ms, 0933ms total)
T1764 001:221 JLINK_WriteReg(XPSR, 0x01000000)  returns 0x00 (0000ms, 0933ms total)
T1764 001:221 JLINK_WriteReg(MSP, 0x20000800)  returns 0x00 (0000ms, 0933ms total)
T1764 001:221 JLINK_WriteReg(PSP, 0x20000800)  returns 0x00 (0000ms, 0933ms total)
T1764 001:221 JLINK_WriteReg(CFBP, 0x00000000)  returns 0x00 (0000ms, 0933ms total)
T1764 001:221 JLINK_SetBPEx(Addr = 0x20000000, Type = 0xFFFFFFF2)  returns 0x00000007 (0000ms, 0933ms total)
T1764 001:221 JLINK_Go() -- CPU_WriteMem(4 bytes @ 0xE0002008) -- CPU_WriteMem(4 bytes @ 0xE000200C) -- CPU_WriteMem(4 bytes @ 0xE0002010) -- CPU_WriteMem(4 bytes @ 0xE0002014) -- CPU_WriteMem(4 bytes @ 0xE0002018) -- CPU_WriteMem(4 bytes @ 0xE000201C) (0009ms, 0933ms total)
T1764 001:230 JLINK_IsHalted()  returns FALSE (0000ms, 0942ms total)
T1764 001:281 JLINK_IsHalted() -- CPU_ReadMem(2 bytes @ 0x20000000)  returns TRUE (0006ms, 0942ms total)
T1764 001:287 JLINK_ReadReg(R15)  returns 0x20000000 (0000ms, 0942ms total)
T1764 001:287 JLINK_ClrBPEx(BPHandle = 0x00000007)  returns 0x00 (0000ms, 0942ms total)
T1764 001:287 JLINK_ReadReg(R0)  returns 0x00000000 (0000ms, 0942ms total)
T1764 001:288 JLINK_WriteMem(0x20000164, 0x0400 Bytes, ...) -- Data:  AC 01 4F F0 02 00 FF F7 F8 FB 01 20 4B 49 08 60 ... -- CPU_WriteMem(1024 bytes @ 0x20000164)  returns 0x400 (0007ms, 0942ms total)
T1764 001:295 JLINK_WriteReg(R0, 0x08000C00)  returns 0x00 (0000ms, 0949ms total)
T1764 001:295 JLINK_WriteReg(R1, 0x00000400)  returns 0x00 (0000ms, 0949ms total)
T1764 001:295 JLINK_WriteReg(R2, 0x20000164)  returns 0x00 (0000ms, 0949ms total)
T1764 001:295 JLINK_WriteReg(R3, 0x00000000)  returns 0x00 (0000ms, 0949ms total)
T1764 001:295 JLINK_WriteReg(R4, 0x00000000)  returns 0x00 (0000ms, 0949ms total)
T1764 001:295 JLINK_WriteReg(R5, 0x00000000)  returns 0x00 (0000ms, 0949ms total)
T1764 001:295 JLINK_WriteReg(R6, 0x00000000)  returns 0x00 (0000ms, 0949ms total)
T1764 001:295 JLINK_WriteReg(R7, 0x00000000)  returns 0x00 (0000ms, 0949ms total)
T1764 001:295 JLINK_WriteReg(R8, 0x00000000)  returns 0x00 (0000ms, 0949ms total)
T1764 001:295 JLINK_WriteReg(R9, 0x20000160)  returns 0x00 (0000ms, 0949ms total)
T1764 001:295 JLINK_WriteReg(R10, 0x00000000)  returns 0x00 (0000ms, 0949ms total)
T1764 001:295 JLINK_WriteReg(R11, 0x00000000)  returns 0x00 (0000ms, 0949ms total)
T1764 001:295 JLINK_WriteReg(R12, 0x00000000)  returns 0x00 (0000ms, 0949ms total)
T1764 001:295 JLINK_WriteReg(R13, 0x20000800)  returns 0x00 (0000ms, 0949ms total)
T1764 001:295 JLINK_WriteReg(R14, 0x20000001)  returns 0x00 (0000ms, 0949ms total)
T1764 001:295 JLINK_WriteReg(R15, 0x200000F4)  returns 0x00 (0000ms, 0949ms total)
T1764 001:295 JLINK_WriteReg(XPSR, 0x01000000)  returns 0x00 (0000ms, 0949ms total)
T1764 001:295 JLINK_WriteReg(MSP, 0x20000800)  returns 0x00 (0000ms, 0949ms total)
T1764 001:295 JLINK_WriteReg(PSP, 0x20000800)  returns 0x00 (0000ms, 0949ms total)
T1764 001:295 JLINK_WriteReg(CFBP, 0x00000000)  returns 0x00 (0000ms, 0949ms total)
T1764 001:295 JLINK_SetBPEx(Addr = 0x20000000, Type = 0xFFFFFFF2)  returns 0x00000008 (0000ms, 0949ms total)
T1764 001:295 JLINK_Go() -- CPU_WriteMem(4 bytes @ 0xE0002008) -- CPU_WriteMem(4 bytes @ 0xE000200C) -- CPU_WriteMem(4 bytes @ 0xE0002010) -- CPU_WriteMem(4 bytes @ 0xE0002014) -- CPU_WriteMem(4 bytes @ 0xE0002018) -- CPU_WriteMem(4 bytes @ 0xE000201C) (0009ms, 0949ms total)
T1764 001:304 JLINK_IsHalted()  returns FALSE (0001ms, 0958ms total)
T1764 001:355 JLINK_IsHalted() -- CPU_ReadMem(2 bytes @ 0x20000000)  returns TRUE (0004ms, 0958ms total)
T1764 001:359 JLINK_ReadReg(R15)  returns 0x20000000 (0000ms, 0958ms total)
T1764 001:359 JLINK_ClrBPEx(BPHandle = 0x00000008)  returns 0x00 (0000ms, 0958ms total)
T1764 001:359 JLINK_ReadReg(R0)  returns 0x00000000 (0000ms, 0958ms total)
T1764 001:360 JLINK_WriteMem(0x20000164, 0x0400 Bytes, ...) -- Data:  FF 70 E3 49 08 60 20 46 10 BD 10 B5 04 46 0B 46 ... -- CPU_WriteMem(1024 bytes @ 0x20000164)  returns 0x400 (0007ms, 0958ms total)
T1764 001:367 JLINK_WriteReg(R0, 0x08001000)  returns 0x00 (0000ms, 0965ms total)
T1764 001:367 JLINK_WriteReg(R1, 0x00000400)  returns 0x00 (0000ms, 0965ms total)
T1764 001:367 JLINK_WriteReg(R2, 0x20000164)  returns 0x00 (0000ms, 0965ms total)
T1764 001:367 JLINK_WriteReg(R3, 0x00000000)  returns 0x00 (0000ms, 0965ms total)
T1764 001:367 JLINK_WriteReg(R4, 0x00000000)  returns 0x00 (0000ms, 0965ms total)
T1764 001:367 JLINK_WriteReg(R5, 0x00000000)  returns 0x00 (0000ms, 0965ms total)
T1764 001:367 JLINK_WriteReg(R6, 0x00000000)  returns 0x00 (0000ms, 0965ms total)
T1764 001:367 JLINK_WriteReg(R7, 0x00000000)  returns 0x00 (0000ms, 0965ms total)
T1764 001:367 JLINK_WriteReg(R8, 0x00000000)  returns 0x00 (0000ms, 0965ms total)
T1764 001:367 JLINK_WriteReg(R9, 0x20000160)  returns 0x00 (0000ms, 0965ms total)
T1764 001:367 JLINK_WriteReg(R10, 0x00000000)  returns 0x00 (0000ms, 0965ms total)
T1764 001:367 JLINK_WriteReg(R11, 0x00000000)  returns 0x00 (0000ms, 0965ms total)
T1764 001:367 JLINK_WriteReg(R12, 0x00000000)  returns 0x00 (0000ms, 0965ms total)
T1764 001:367 JLINK_WriteReg(R13, 0x20000800)  returns 0x00 (0000ms, 0965ms total)
T1764 001:367 JLINK_WriteReg(R14, 0x20000001)  returns 0x00 (0000ms, 0965ms total)
T1764 001:367 JLINK_WriteReg(R15, 0x200000F4)  returns 0x00 (0000ms, 0965ms total)
T1764 001:367 JLINK_WriteReg(XPSR, 0x01000000)  returns 0x00 (0000ms, 0965ms total)
T1764 001:367 JLINK_WriteReg(MSP, 0x20000800)  returns 0x00 (0000ms, 0965ms total)
T1764 001:367 JLINK_WriteReg(PSP, 0x20000800)  returns 0x00 (0000ms, 0965ms total)
T1764 001:367 JLINK_WriteReg(CFBP, 0x00000000)  returns 0x00 (0000ms, 0965ms total)
T1764 001:367 JLINK_SetBPEx(Addr = 0x20000000, Type = 0xFFFFFFF2)  returns 0x00000009 (0000ms, 0965ms total)
T1764 001:367 JLINK_Go() -- CPU_WriteMem(4 bytes @ 0xE0002008) -- CPU_WriteMem(4 bytes @ 0xE000200C) -- CPU_WriteMem(4 bytes @ 0xE0002010) -- CPU_WriteMem(4 bytes @ 0xE0002014) -- CPU_WriteMem(4 bytes @ 0xE0002018) -- CPU_WriteMem(4 bytes @ 0xE000201C) (0009ms, 0965ms total)
T1764 001:376 JLINK_IsHalted()  returns FALSE (0000ms, 0974ms total)
T1764 001:426 JLINK_IsHalted() -- CPU_ReadMem(2 bytes @ 0x20000000)  returns TRUE (0004ms, 0974ms total)
T1764 001:430 JLINK_ReadReg(R15)  returns 0x20000000 (0000ms, 0974ms total)
T1764 001:430 JLINK_ClrBPEx(BPHandle = 0x00000009)  returns 0x00 (0000ms, 0974ms total)
T1764 001:430 JLINK_ReadReg(R0)  returns 0x00000000 (0000ms, 0974ms total)
T1764 001:431 JLINK_WriteMem(0x20000164, 0x0400 Bytes, ...) -- Data:  08 60 80 20 E7 49 48 61 08 61 80 00 08 61 40 10 ... -- CPU_WriteMem(1024 bytes @ 0x20000164)  returns 0x400 (0007ms, 0974ms total)
T1764 001:438 JLINK_WriteReg(R0, 0x08001400)  returns 0x00 (0000ms, 0981ms total)
T1764 001:438 JLINK_WriteReg(R1, 0x00000400)  returns 0x00 (0000ms, 0981ms total)
T1764 001:438 JLINK_WriteReg(R2, 0x20000164)  returns 0x00 (0000ms, 0981ms total)
T1764 001:438 JLINK_WriteReg(R3, 0x00000000)  returns 0x00 (0000ms, 0981ms total)
T1764 001:438 JLINK_WriteReg(R4, 0x00000000)  returns 0x00 (0000ms, 0981ms total)
T1764 001:438 JLINK_WriteReg(R5, 0x00000000)  returns 0x00 (0000ms, 0981ms total)
T1764 001:438 JLINK_WriteReg(R6, 0x00000000)  returns 0x00 (0000ms, 0981ms total)
T1764 001:438 JLINK_WriteReg(R7, 0x00000000)  returns 0x00 (0001ms, 0981ms total)
T1764 001:439 JLINK_WriteReg(R8, 0x00000000)  returns 0x00 (0000ms, 0982ms total)
T1764 001:439 JLINK_WriteReg(R9, 0x20000160)  returns 0x00 (0000ms, 0982ms total)
T1764 001:439 JLINK_WriteReg(R10, 0x00000000)  returns 0x00 (0000ms, 0982ms total)
T1764 001:439 JLINK_WriteReg(R11, 0x00000000)  returns 0x00 (0000ms, 0982ms total)
T1764 001:439 JLINK_WriteReg(R12, 0x00000000)  returns 0x00 (0000ms, 0982ms total)
T1764 001:439 JLINK_WriteReg(R13, 0x20000800)  returns 0x00 (0000ms, 0982ms total)
T1764 001:439 JLINK_WriteReg(R14, 0x20000001)  returns 0x00 (0000ms, 0982ms total)
T1764 001:439 JLINK_WriteReg(R15, 0x200000F4)  returns 0x00 (0000ms, 0982ms total)
T1764 001:439 JLINK_WriteReg(XPSR, 0x01000000)  returns 0x00 (0000ms, 0982ms total)
T1764 001:439 JLINK_WriteReg(MSP, 0x20000800)  returns 0x00 (0000ms, 0982ms total)
T1764 001:439 JLINK_WriteReg(PSP, 0x20000800)  returns 0x00 (0000ms, 0982ms total)
T1764 001:439 JLINK_WriteReg(CFBP, 0x00000000)  returns 0x00 (0000ms, 0982ms total)
T1764 001:439 JLINK_SetBPEx(Addr = 0x20000000, Type = 0xFFFFFFF2)  returns 0x0000000A (0000ms, 0982ms total)
T1764 001:439 JLINK_Go() -- CPU_WriteMem(4 bytes @ 0xE0002008) -- CPU_WriteMem(4 bytes @ 0xE000200C) -- CPU_WriteMem(4 bytes @ 0xE0002010) -- CPU_WriteMem(4 bytes @ 0xE0002014) -- CPU_WriteMem(4 bytes @ 0xE0002018) -- CPU_WriteMem(4 bytes @ 0xE000201C) (0010ms, 0982ms total)
T1764 001:449 JLINK_IsHalted()  returns FALSE (0001ms, 0992ms total)
T1764 001:500 JLINK_IsHalted() -- CPU_ReadMem(2 bytes @ 0x20000000)  returns TRUE (0006ms, 0992ms total)
T1764 001:506 JLINK_ReadReg(R15)  returns 0x20000000 (0000ms, 0992ms total)
T1764 001:506 JLINK_ClrBPEx(BPHandle = 0x0000000A)  returns 0x00 (0000ms, 0992ms total)
T1764 001:525 JLINK_ReadReg(R0)  returns 0x00000000 (0000ms, 1011ms total)
T1764 001:529 JLINK_WriteMem(0x20000164, 0x0400 Bytes, ...) -- Data:  08 61 EA 20 FF F7 C2 FB 4F F4 80 70 EF 49 08 61 ... -- CPU_WriteMem(1024 bytes @ 0x20000164)  returns 0x400 (0008ms, 1011ms total)
T1764 001:537 JLINK_WriteReg(R0, 0x08001800)  returns 0x00 (0000ms, 1019ms total)
T1764 001:537 JLINK_WriteReg(R1, 0x00000400)  returns 0x00 (0000ms, 1019ms total)
T1764 001:537 JLINK_WriteReg(R2, 0x20000164)  returns 0x00 (0000ms, 1019ms total)
T1764 001:537 JLINK_WriteReg(R3, 0x00000000)  returns 0x00 (0000ms, 1019ms total)
T1764 001:537 JLINK_WriteReg(R4, 0x00000000)  returns 0x00 (0000ms, 1019ms total)
T1764 001:537 JLINK_WriteReg(R5, 0x00000000)  returns 0x00 (0000ms, 1019ms total)
T1764 001:537 JLINK_WriteReg(R6, 0x00000000)  returns 0x00 (0000ms, 1019ms total)
T1764 001:537 JLINK_WriteReg(R7, 0x00000000)  returns 0x00 (0000ms, 1019ms total)
T1764 001:537 JLINK_WriteReg(R8, 0x00000000)  returns 0x00 (0000ms, 1019ms total)
T1764 001:537 JLINK_WriteReg(R9, 0x20000160)  returns 0x00 (0000ms, 1019ms total)
T1764 001:537 JLINK_WriteReg(R10, 0x00000000)  returns 0x00 (0000ms, 1019ms total)
T1764 001:537 JLINK_WriteReg(R11, 0x00000000)  returns 0x00 (0000ms, 1019ms total)
T1764 001:537 JLINK_WriteReg(R12, 0x00000000)  returns 0x00 (0000ms, 1019ms total)
T1764 001:537 JLINK_WriteReg(R13, 0x20000800)  returns 0x00 (0000ms, 1019ms total)
T1764 001:537 JLINK_WriteReg(R14, 0x20000001)  returns 0x00 (0000ms, 1019ms total)
T1764 001:537 JLINK_WriteReg(R15, 0x200000F4)  returns 0x00 (0000ms, 1019ms total)
T1764 001:537 JLINK_WriteReg(XPSR, 0x01000000)  returns 0x00 (0000ms, 1019ms total)
T1764 001:537 JLINK_WriteReg(MSP, 0x20000800)  returns 0x00 (0000ms, 1019ms total)
T1764 001:537 JLINK_WriteReg(PSP, 0x20000800)  returns 0x00 (0000ms, 1019ms total)
T1764 001:537 JLINK_WriteReg(CFBP, 0x00000000)  returns 0x00 (0000ms, 1019ms total)
T1764 001:537 JLINK_SetBPEx(Addr = 0x20000000, Type = 0xFFFFFFF2)  returns 0x0000000B (0000ms, 1019ms total)
T1764 001:537 JLINK_Go() -- CPU_WriteMem(4 bytes @ 0xE0002008) -- CPU_WriteMem(4 bytes @ 0xE000200C) -- CPU_WriteMem(4 bytes @ 0xE0002010) -- CPU_WriteMem(4 bytes @ 0xE0002014) -- CPU_WriteMem(4 bytes @ 0xE0002018) -- CPU_WriteMem(4 bytes @ 0xE000201C) (0007ms, 1019ms total)
T1764 001:544 JLINK_IsHalted()  returns FALSE (0001ms, 1026ms total)
T1764 001:595 JLINK_IsHalted() -- CPU_ReadMem(2 bytes @ 0x20000000)  returns TRUE (0003ms, 1026ms total)
T1764 001:599 JLINK_ReadReg(R15)  returns 0x20000000 (0000ms, 1026ms total)
T1764 001:599 JLINK_ClrBPEx(BPHandle = 0x0000000B)  returns 0x00 (0000ms, 1026ms total)
T1764 001:599 JLINK_ReadReg(R0)  returns 0x00000000 (0000ms, 1026ms total)
T1764 001:601 JLINK_WriteMem(0x20000164, 0x0400 Bytes, ...) -- Data:  08 61 40 10 08 61 40 00 48 61 11 20 F1 49 08 60 ... -- CPU_WriteMem(1024 bytes @ 0x20000164)  returns 0x400 (0007ms, 1026ms total)
T1764 001:608 JLINK_WriteReg(R0, 0x08001C00)  returns 0x00 (0000ms, 1033ms total)
T1764 001:608 JLINK_WriteReg(R1, 0x00000400)  returns 0x00 (0001ms, 1033ms total)
T1764 001:609 JLINK_WriteReg(R2, 0x20000164)  returns 0x00 (0000ms, 1034ms total)
T1764 001:609 JLINK_WriteReg(R3, 0x00000000)  returns 0x00 (0000ms, 1034ms total)
T1764 001:609 JLINK_WriteReg(R4, 0x00000000)  returns 0x00 (0000ms, 1034ms total)
T1764 001:609 JLINK_WriteReg(R5, 0x00000000)  returns 0x00 (0000ms, 1034ms total)
T1764 001:609 JLINK_WriteReg(R6, 0x00000000)  returns 0x00 (0000ms, 1034ms total)
T1764 001:609 JLINK_WriteReg(R7, 0x00000000)  returns 0x00 (0000ms, 1034ms total)
T1764 001:609 JLINK_WriteReg(R8, 0x00000000)  returns 0x00 (0000ms, 1034ms total)
T1764 001:609 JLINK_WriteReg(R9, 0x20000160)  returns 0x00 (0000ms, 1034ms total)
T1764 001:609 JLINK_WriteReg(R10, 0x00000000)  returns 0x00 (0000ms, 1034ms total)
T1764 001:609 JLINK_WriteReg(R11, 0x00000000)  returns 0x00 (0000ms, 1034ms total)
T1764 001:609 JLINK_WriteReg(R12, 0x00000000)  returns 0x00 (0000ms, 1034ms total)
T1764 001:609 JLINK_WriteReg(R13, 0x20000800)  returns 0x00 (0000ms, 1034ms total)
T1764 001:609 JLINK_WriteReg(R14, 0x20000001)  returns 0x00 (0000ms, 1034ms total)
T1764 001:609 JLINK_WriteReg(R15, 0x200000F4)  returns 0x00 (0000ms, 1034ms total)
T1764 001:609 JLINK_WriteReg(XPSR, 0x01000000)  returns 0x00 (0000ms, 1034ms total)
T1764 001:609 JLINK_WriteReg(MSP, 0x20000800)  returns 0x00 (0000ms, 1034ms total)
T1764 001:609 JLINK_WriteReg(PSP, 0x20000800)  returns 0x00 (0000ms, 1034ms total)
T1764 001:609 JLINK_WriteReg(CFBP, 0x00000000)  returns 0x00 (0000ms, 1034ms total)
T1764 001:609 JLINK_SetBPEx(Addr = 0x20000000, Type = 0xFFFFFFF2)  returns 0x0000000C (0000ms, 1034ms total)
T1764 001:609 JLINK_Go() -- CPU_WriteMem(4 bytes @ 0xE0002008) -- CPU_WriteMem(4 bytes @ 0xE000200C) -- CPU_WriteMem(4 bytes @ 0xE0002010) -- CPU_WriteMem(4 bytes @ 0xE0002014) -- CPU_WriteMem(4 bytes @ 0xE0002018) -- CPU_WriteMem(4 bytes @ 0xE000201C) (0009ms, 1034ms total)
T1764 001:618 JLINK_IsHalted()  returns FALSE (0001ms, 1043ms total)
T1764 001:676 JLINK_IsHalted() -- CPU_ReadMem(2 bytes @ 0x20000000)  returns TRUE (0020ms, 1043ms total)
T1764 001:696 JLINK_ReadReg(R15)  returns 0x20000000 (0000ms, 1043ms total)
T1764 001:696 JLINK_ClrBPEx(BPHandle = 0x0000000C)  returns 0x00 (0000ms, 1043ms total)
T1764 001:696 JLINK_ReadReg(R0)  returns 0x00000000 (0000ms, 1043ms total)
T1764 001:697 JLINK_WriteMem(0x20000164, 0x0400 Bytes, ...) -- Data:  04 F8 4F F4 80 71 01 20 FE F7 FF FF 4F F4 E0 61 ... -- CPU_WriteMem(1024 bytes @ 0x20000164)  returns 0x400 (0007ms, 1043ms total)
T1764 001:704 JLINK_WriteReg(R0, 0x08002000)  returns 0x00 (0000ms, 1050ms total)
T1764 001:704 JLINK_WriteReg(R1, 0x00000400)  returns 0x00 (0000ms, 1050ms total)
T1764 001:704 JLINK_WriteReg(R2, 0x20000164)  returns 0x00 (0000ms, 1050ms total)
T1764 001:704 JLINK_WriteReg(R3, 0x00000000)  returns 0x00 (0000ms, 1050ms total)
T1764 001:704 JLINK_WriteReg(R4, 0x00000000)  returns 0x00 (0000ms, 1050ms total)
T1764 001:704 JLINK_WriteReg(R5, 0x00000000)  returns 0x00 (0000ms, 1050ms total)
T1764 001:704 JLINK_WriteReg(R6, 0x00000000)  returns 0x00 (0000ms, 1050ms total)
T1764 001:704 JLINK_WriteReg(R7, 0x00000000)  returns 0x00 (0000ms, 1050ms total)
T1764 001:704 JLINK_WriteReg(R8, 0x00000000)  returns 0x00 (0000ms, 1050ms total)
T1764 001:704 JLINK_WriteReg(R9, 0x20000160)  returns 0x00 (0000ms, 1050ms total)
T1764 001:704 JLINK_WriteReg(R10, 0x00000000)  returns 0x00 (0000ms, 1050ms total)
T1764 001:704 JLINK_WriteReg(R11, 0x00000000)  returns 0x00 (0000ms, 1050ms total)
T1764 001:704 JLINK_WriteReg(R12, 0x00000000)  returns 0x00 (0000ms, 1050ms total)
T1764 001:704 JLINK_WriteReg(R13, 0x20000800)  returns 0x00 (0000ms, 1050ms total)
T1764 001:704 JLINK_WriteReg(R14, 0x20000001)  returns 0x00 (0000ms, 1050ms total)
T1764 001:704 JLINK_WriteReg(R15, 0x200000F4)  returns 0x00 (0000ms, 1050ms total)
T1764 001:704 JLINK_WriteReg(XPSR, 0x01000000)  returns 0x00 (0000ms, 1050ms total)
T1764 001:704 JLINK_WriteReg(MSP, 0x20000800)  returns 0x00 (0000ms, 1050ms total)
T1764 001:704 JLINK_WriteReg(PSP, 0x20000800)  returns 0x00 (0000ms, 1050ms total)
T1764 001:704 JLINK_WriteReg(CFBP, 0x00000000)  returns 0x00 (0000ms, 1050ms total)
T1764 001:704 JLINK_SetBPEx(Addr = 0x20000000, Type = 0xFFFFFFF2)  returns 0x0000000D (0000ms, 1050ms total)
T1764 001:704 JLINK_Go() -- CPU_WriteMem(4 bytes @ 0xE0002008) -- CPU_WriteMem(4 bytes @ 0xE000200C) -- CPU_WriteMem(4 bytes @ 0xE0002010) -- CPU_WriteMem(4 bytes @ 0xE0002014) -- CPU_WriteMem(4 bytes @ 0xE0002018) -- CPU_WriteMem(4 bytes @ 0xE000201C) (0008ms, 1050ms total)
T1764 001:712 JLINK_IsHalted()  returns FALSE (0000ms, 1058ms total)
T1764 001:762 JLINK_IsHalted() -- CPU_ReadMem(2 bytes @ 0x20000000)  returns TRUE (0004ms, 1058ms total)
T1764 001:766 JLINK_ReadReg(R15)  returns 0x20000000 (0000ms, 1058ms total)
T1764 001:766 JLINK_ClrBPEx(BPHandle = 0x0000000D)  returns 0x00 (0000ms, 1058ms total)
T1764 001:766 JLINK_ReadReg(R0)  returns 0x00000000 (0000ms, 1058ms total)
T1764 001:794 JLINK_WriteMem(0x20000164, 0x0400 Bytes, ...) -- Data:  9C 71 12 20 FE F7 01 FE 4F F4 00 61 13 20 FE F7 ... -- CPU_WriteMem(1024 bytes @ 0x20000164)  returns 0x400 (0016ms, 1058ms total)
T1764 001:810 JLINK_WriteReg(R0, 0x08002400)  returns 0x00 (0001ms, 1074ms total)
T1764 001:811 JLINK_WriteReg(R1, 0x00000400)  returns 0x00 (0000ms, 1075ms total)
T1764 001:811 JLINK_WriteReg(R2, 0x20000164)  returns 0x00 (0000ms, 1075ms total)
T1764 001:811 JLINK_WriteReg(R3, 0x00000000)  returns 0x00 (0000ms, 1075ms total)
T1764 001:811 JLINK_WriteReg(R4, 0x00000000)  returns 0x00 (0000ms, 1075ms total)
T1764 001:811 JLINK_WriteReg(R5, 0x00000000)  returns 0x00 (0000ms, 1075ms total)
T1764 001:811 JLINK_WriteReg(R6, 0x00000000)  returns 0x00 (0000ms, 1075ms total)
T1764 001:811 JLINK_WriteReg(R7, 0x00000000)  returns 0x00 (0000ms, 1075ms total)
T1764 001:811 JLINK_WriteReg(R8, 0x00000000)  returns 0x00 (0000ms, 1075ms total)
T1764 001:811 JLINK_WriteReg(R9, 0x20000160)  returns 0x00 (0000ms, 1075ms total)
T1764 001:811 JLINK_WriteReg(R10, 0x00000000)  returns 0x00 (0000ms, 1075ms total)
T1764 001:811 JLINK_WriteReg(R11, 0x00000000)  returns 0x00 (0000ms, 1075ms total)
T1764 001:811 JLINK_WriteReg(R12, 0x00000000)  returns 0x00 (0000ms, 1075ms total)
T1764 001:811 JLINK_WriteReg(R13, 0x20000800)  returns 0x00 (0000ms, 1075ms total)
T1764 001:811 JLINK_WriteReg(R14, 0x20000001)  returns 0x00 (0000ms, 1075ms total)
T1764 001:811 JLINK_WriteReg(R15, 0x200000F4)  returns 0x00 (0000ms, 1075ms total)
T1764 001:811 JLINK_WriteReg(XPSR, 0x01000000)  returns 0x00 (0000ms, 1075ms total)
T1764 001:811 JLINK_WriteReg(MSP, 0x20000800)  returns 0x00 (0000ms, 1075ms total)
T1764 001:811 JLINK_WriteReg(PSP, 0x20000800)  returns 0x00 (0000ms, 1075ms total)
T1764 001:811 JLINK_WriteReg(CFBP, 0x00000000)  returns 0x00 (0000ms, 1075ms total)
T1764 001:811 JLINK_SetBPEx(Addr = 0x20000000, Type = 0xFFFFFFF2)  returns 0x0000000E (0000ms, 1075ms total)
T1764 001:811 JLINK_Go() -- CPU_WriteMem(4 bytes @ 0xE0002008) -- CPU_WriteMem(4 bytes @ 0xE000200C) -- CPU_WriteMem(4 bytes @ 0xE0002010) -- CPU_WriteMem(4 bytes @ 0xE0002014) -- CPU_WriteMem(4 bytes @ 0xE0002018) -- CPU_WriteMem(4 bytes @ 0xE000201C) (0008ms, 1075ms total)
T1764 001:819 JLINK_IsHalted()  returns FALSE (0015ms, 1083ms total)
T1764 001:884 JLINK_IsHalted() -- CPU_ReadMem(2 bytes @ 0x20000000)  returns TRUE (0003ms, 1083ms total)
T1764 001:887 JLINK_ReadReg(R15)  returns 0x20000000 (0001ms, 1083ms total)
T1764 001:888 JLINK_ClrBPEx(BPHandle = 0x0000000E)  returns 0x00 (0000ms, 1084ms total)
T1764 001:888 JLINK_ReadReg(R0)  returns 0x00000000 (0000ms, 1084ms total)
T1764 001:888 JLINK_WriteMem(0x20000164, 0x0400 Bytes, ...) -- Data:  04 FC 14 20 FD F7 DE FD 00 E0 86 E0 4F F4 70 61 ... -- CPU_WriteMem(1024 bytes @ 0x20000164)  returns 0x400 (0007ms, 1084ms total)
T1764 001:895 JLINK_WriteReg(R0, 0x08002800)  returns 0x00 (0000ms, 1091ms total)
T1764 001:895 JLINK_WriteReg(R1, 0x00000400)  returns 0x00 (0000ms, 1091ms total)
T1764 001:895 JLINK_WriteReg(R2, 0x20000164)  returns 0x00 (0000ms, 1091ms total)
T1764 001:895 JLINK_WriteReg(R3, 0x00000000)  returns 0x00 (0000ms, 1091ms total)
T1764 001:895 JLINK_WriteReg(R4, 0x00000000)  returns 0x00 (0000ms, 1091ms total)
T1764 001:895 JLINK_WriteReg(R5, 0x00000000)  returns 0x00 (0000ms, 1091ms total)
T1764 001:895 JLINK_WriteReg(R6, 0x00000000)  returns 0x00 (0000ms, 1091ms total)
T1764 001:895 JLINK_WriteReg(R7, 0x00000000)  returns 0x00 (0000ms, 1091ms total)
T1764 001:895 JLINK_WriteReg(R8, 0x00000000)  returns 0x00 (0000ms, 1091ms total)
T1764 001:895 JLINK_WriteReg(R9, 0x20000160)  returns 0x00 (0000ms, 1091ms total)
T1764 001:895 JLINK_WriteReg(R10, 0x00000000)  returns 0x00 (0000ms, 1091ms total)
T1764 001:895 JLINK_WriteReg(R11, 0x00000000)  returns 0x00 (0000ms, 1091ms total)
T1764 001:895 JLINK_WriteReg(R12, 0x00000000)  returns 0x00 (0000ms, 1091ms total)
T1764 001:895 JLINK_WriteReg(R13, 0x20000800)  returns 0x00 (0000ms, 1091ms total)
T1764 001:895 JLINK_WriteReg(R14, 0x20000001)  returns 0x00 (0000ms, 1091ms total)
T1764 001:895 JLINK_WriteReg(R15, 0x200000F4)  returns 0x00 (0000ms, 1091ms total)
T1764 001:895 JLINK_WriteReg(XPSR, 0x01000000)  returns 0x00 (0001ms, 1091ms total)
T1764 001:896 JLINK_WriteReg(MSP, 0x20000800)  returns 0x00 (0000ms, 1092ms total)
T1764 001:896 JLINK_WriteReg(PSP, 0x20000800)  returns 0x00 (0000ms, 1092ms total)
T1764 001:896 JLINK_WriteReg(CFBP, 0x00000000)  returns 0x00 (0000ms, 1092ms total)
T1764 001:896 JLINK_SetBPEx(Addr = 0x20000000, Type = 0xFFFFFFF2)  returns 0x0000000F (0000ms, 1092ms total)
T1764 001:896 JLINK_Go() -- CPU_WriteMem(4 bytes @ 0xE0002008) -- CPU_WriteMem(4 bytes @ 0xE000200C) -- CPU_WriteMem(4 bytes @ 0xE0002010) -- CPU_WriteMem(4 bytes @ 0xE0002014) -- CPU_WriteMem(4 bytes @ 0xE0002018) -- CPU_WriteMem(4 bytes @ 0xE000201C) (0008ms, 1092ms total)
T1764 001:904 JLINK_IsHalted()  returns FALSE (0000ms, 1100ms total)
T1764 001:954 JLINK_IsHalted() -- CPU_ReadMem(2 bytes @ 0x20000000)  returns TRUE (0004ms, 1100ms total)
T1764 001:958 JLINK_ReadReg(R15)  returns 0x20000000 (0000ms, 1100ms total)
T1764 001:958 JLINK_ClrBPEx(BPHandle = 0x0000000F)  returns 0x00 (0000ms, 1100ms total)
T1764 001:958 JLINK_ReadReg(R0)  returns 0x00000000 (0000ms, 1100ms total)
T1764 001:958 JLINK_WriteMem(0x20000164, 0x0400 Bytes, ...) -- Data:  04 FA 40 F2 02 51 37 20 FE F7 FF F9 40 F2 02 31 ... -- CPU_WriteMem(1024 bytes @ 0x20000164)  returns 0x400 (0007ms, 1100ms total)
T1764 001:965 JLINK_WriteReg(R0, 0x08002C00)  returns 0x00 (0000ms, 1107ms total)
T1764 001:965 JLINK_WriteReg(R1, 0x00000400)  returns 0x00 (0000ms, 1107ms total)
T1764 001:965 JLINK_WriteReg(R2, 0x20000164)  returns 0x00 (0000ms, 1107ms total)
T1764 001:965 JLINK_WriteReg(R3, 0x00000000)  returns 0x00 (0001ms, 1107ms total)
T1764 001:966 JLINK_WriteReg(R4, 0x00000000)  returns 0x00 (0000ms, 1108ms total)
T1764 001:966 JLINK_WriteReg(R5, 0x00000000)  returns 0x00 (0000ms, 1108ms total)
T1764 001:966 JLINK_WriteReg(R6, 0x00000000)  returns 0x00 (0000ms, 1108ms total)
T1764 001:966 JLINK_WriteReg(R7, 0x00000000)  returns 0x00 (0000ms, 1108ms total)
T1764 001:966 JLINK_WriteReg(R8, 0x00000000)  returns 0x00 (0000ms, 1108ms total)
T1764 001:966 JLINK_WriteReg(R9, 0x20000160)  returns 0x00 (0000ms, 1108ms total)
T1764 001:966 JLINK_WriteReg(R10, 0x00000000)  returns 0x00 (0000ms, 1108ms total)
T1764 001:966 JLINK_WriteReg(R11, 0x00000000)  returns 0x00 (0000ms, 1108ms total)
T1764 001:966 JLINK_WriteReg(R12, 0x00000000)  returns 0x00 (0000ms, 1108ms total)
T1764 001:966 JLINK_WriteReg(R13, 0x20000800)  returns 0x00 (0000ms, 1108ms total)
T1764 001:966 JLINK_WriteReg(R14, 0x20000001)  returns 0x00 (0000ms, 1108ms total)
T1764 001:966 JLINK_WriteReg(R15, 0x200000F4)  returns 0x00 (0000ms, 1108ms total)
T1764 001:966 JLINK_WriteReg(XPSR, 0x01000000)  returns 0x00 (0000ms, 1108ms total)
T1764 001:966 JLINK_WriteReg(MSP, 0x20000800)  returns 0x00 (0000ms, 1108ms total)
T1764 001:966 JLINK_WriteReg(PSP, 0x20000800)  returns 0x00 (0000ms, 1108ms total)
T1764 001:966 JLINK_WriteReg(CFBP, 0x00000000)  returns 0x00 (0000ms, 1108ms total)
T1764 001:966 JLINK_SetBPEx(Addr = 0x20000000, Type = 0xFFFFFFF2)  returns 0x00000010 (0000ms, 1108ms total)
T1764 001:966 JLINK_Go() -- CPU_WriteMem(4 bytes @ 0xE0002008) -- CPU_WriteMem(4 bytes @ 0xE000200C) -- CPU_WriteMem(4 bytes @ 0xE0002010) -- CPU_WriteMem(4 bytes @ 0xE0002014) -- CPU_WriteMem(4 bytes @ 0xE0002018) -- CPU_WriteMem(4 bytes @ 0xE000201C) (0008ms, 1108ms total)
T1764 001:974 JLINK_IsHalted()  returns FALSE (0001ms, 1116ms total)
T1764 002:025 JLINK_IsHalted() -- CPU_ReadMem(2 bytes @ 0x20000000)  returns TRUE (0004ms, 1116ms total)
T1764 002:029 JLINK_ReadReg(R15)  returns 0x20000000 (0001ms, 1116ms total)
T1764 002:031 JLINK_ClrBPEx(BPHandle = 0x00000010)  returns 0x00 (0000ms, 1117ms total)
T1764 002:031 JLINK_ReadReg(R0)  returns 0x00000000 (0000ms, 1117ms total)
T1764 002:033 JLINK_WriteMem(0x20000164, 0x0400 Bytes, ...) -- Data:  00 2E 02 DD 4F F0 01 08 06 E0 16 B9 4F F0 00 08 ... -- CPU_WriteMem(1024 bytes @ 0x20000164)  returns 0x400 (0007ms, 1117ms total)
T1764 002:040 JLINK_WriteReg(R0, 0x08003000)  returns 0x00 (0000ms, 1124ms total)
T1764 002:040 JLINK_WriteReg(R1, 0x00000400)  returns 0x00 (0000ms, 1124ms total)
T1764 002:040 JLINK_WriteReg(R2, 0x20000164)  returns 0x00 (0001ms, 1124ms total)
T1764 002:041 JLINK_WriteReg(R3, 0x00000000)  returns 0x00 (0000ms, 1125ms total)
T1764 002:041 JLINK_WriteReg(R4, 0x00000000)  returns 0x00 (0000ms, 1125ms total)
T1764 002:041 JLINK_WriteReg(R5, 0x00000000)  returns 0x00 (0000ms, 1125ms total)
T1764 002:041 JLINK_WriteReg(R6, 0x00000000)  returns 0x00 (0000ms, 1125ms total)
T1764 002:041 JLINK_WriteReg(R7, 0x00000000)  returns 0x00 (0000ms, 1125ms total)
T1764 002:041 JLINK_WriteReg(R8, 0x00000000)  returns 0x00 (0000ms, 1125ms total)
T1764 002:041 JLINK_WriteReg(R9, 0x20000160)  returns 0x00 (0000ms, 1125ms total)
T1764 002:041 JLINK_WriteReg(R10, 0x00000000)  returns 0x00 (0000ms, 1125ms total)
T1764 002:041 JLINK_WriteReg(R11, 0x00000000)  returns 0x00 (0000ms, 1125ms total)
T1764 002:041 JLINK_WriteReg(R12, 0x00000000)  returns 0x00 (0000ms, 1125ms total)
T1764 002:041 JLINK_WriteReg(R13, 0x20000800)  returns 0x00 (0000ms, 1125ms total)
T1764 002:041 JLINK_WriteReg(R14, 0x20000001)  returns 0x00 (0000ms, 1125ms total)
T1764 002:041 JLINK_WriteReg(R15, 0x200000F4)  returns 0x00 (0000ms, 1125ms total)
